#  HZ   S   RI   R     50.00 
! Rohde & Schwarz Vector Network Analyzer 
! Rohde-Schwarz,ZNB8-4Port,1311601044103452,2.94
! Created: UTC 2/23/2022, 10:45:34 AM
! freq[Hz]                re:S11                  im:S11
 3.000000000000000E8     9.933120930121167E-1   -9.466612372858667E-2
 3.001000000000000E8     9.942252835461598E-1   -9.497486498493671E-2
 3.002000000000000E8     9.934394273042531E-1   -9.535607312607250E-2
 3.003000000000000E8     9.938865284444768E-1   -9.451247414319025E-2
 3.004000000000000E8     9.934193577339699E-1   -9.485081969010276E-2
 3.005000000000000E8     9.937089810604202E-1   -9.526947552411702E-2
 3.006000000000000E8     9.937153495267931E-1   -9.531815420468039E-2
 3.007000000000000E8     9.936600037483306E-1   -9.521033542316269E-2
 3.008000000000000E8     9.936833481981897E-1   -9.499086841745587E-2
 3.009000000000000E8     9.938656531714076E-1   -9.527749362020514E-2
 3.010000000000000E8     9.935234028379468E-1   -9.484848634718963E-2
 3.011000000000000E8     9.936228262244820E-1   -9.524485357730506E-2
 3.012000000000000E8     9.936535760406303E-1   -9.555813533673035E-2
 3.013000000000000E8     9.933801924328207E-1   -9.542580331951550E-2
 3.014000000000000E8     9.933309986404040E-1   -9.573964488783275E-2
 3.015000000000000E8     9.933674380936324E-1   -9.502210162525114E-2
 3.016000000000000E8     9.940956274777751E-1   -9.553351489928171E-2
 3.017000000000000E8     9.936423182108597E-1   -9.564743210498540E-2
 3.018000000000000E8     9.938548525556332E-1   -9.577920518282393E-2
 3.019000000000000E8     9.937697016628592E-1   -9.537428732596945E-2
 3.020000000000000E8     9.935295211305090E-1   -9.563812398122971E-2
 3.021000000000000E8     9.937442659364780E-1   -9.525476073773628E-2
 3.022000000000000E8     9.939851090880005E-1   -9.547170418962468E-2
 3.023000000000000E8     9.936755652959959E-1   -9.533342652383114E-2
 3.024000000000000E8     9.934201929089630E-1   -9.554802191599783E-2
 3.025000000000000E8     9.934966356878070E-1   -9.536496702892663E-2
 3.026000000000000E8     9.940461138243576E-1   -9.548997389960054E-2
 3.027000000000000E8     9.933189533573165E-1   -9.578404926330002E-2
 3.028000000000000E8     9.937367039507220E-1   -9.571309573027549E-2
 3.029000000000000E8     9.934343221933313E-1   -9.619458743722553E-2
 3.030000000000000E8     9.936072082254408E-1   -9.578719087518789E-2
 3.031000000000000E8     9.938645343361182E-1   -9.578794679510667E-2
 3.032000000000000E8     9.935396985607453E-1   -9.643476362704856E-2
 3.033000000000000E8     9.935739801051403E-1   -9.625492377973174E-2
 3.034000000000000E8     9.938957839702071E-1   -9.548252600449897E-2
 3.035000000000000E8     9.937958984688657E-1   -9.604178250156151E-2
 3.036000000000000E8     9.935409613085174E-1   -9.637819642126558E-2
 3.037000000000000E8     9.936543688416220E-1   -9.595411653309323E-2
 3.038000000000000E8     9.943390662063918E-1   -9.596960849777014E-2
 3.039000000000000E8     9.935399344356525E-1   -9.564407670181925E-2
 3.040000000000000E8     9.934882711169426E-1   -9.637621765983788E-2
 3.041000000000000E8     9.936440596589208E-1   -9.635655801776402E-2
 3.042000000000000E8     9.936660130941863E-1   -9.620137105404118E-2
 3.043000000000000E8     9.937733265573614E-1   -9.642751486501078E-2
 3.044000000000000E8     9.935849812860195E-1   -9.667429319346894E-2
 3.045000000000000E8     9.942723023176515E-1   -9.658497660077405E-2
 3.046000000000000E8     9.930601835264340E-1   -9.640893129238570E-2
 3.047000000000000E8     9.936819362098167E-1   -9.616069003556596E-2
 3.048000000000000E8     9.933540917089127E-1   -9.636186027399497E-2
 3.049000000000000E8     9.940722900738420E-1   -9.652667750898847E-2
 3.050000000000000E8     9.938250749910620E-1   -9.637159420834909E-2
 3.051000000000000E8     9.936279471315248E-1   -9.661895841206709E-2
 3.052000000000000E8     9.933840667616530E-1   -9.687503073992179E-2
 3.053000000000000E8     9.933206064324488E-1   -9.667301137399702E-2
 3.054000000000000E8     9.934575668365170E-1   -9.668639659745786E-2
 3.055000000000000E8     9.938468644967204E-1   -9.686246624886465E-2
 3.056000000000000E8     9.934283324004058E-1   -9.644615643129761E-2
 3.057000000000000E8     9.939773774698213E-1   -9.683956016217561E-2
 3.058000000000000E8     9.933957802337796E-1   -9.740779372052083E-2
 3.059000000000000E8     9.934060147862514E-1   -9.721124461704726E-2
 3.060000000000000E8     9.939665785397448E-1   -9.709373583192039E-2
 3.061000000000000E8     9.936255299313189E-1   -9.646647847175136E-2
 3.062000000000000E8     9.939430065905439E-1   -9.710626340794680E-2
 3.063000000000000E8     9.938850417435132E-1   -9.720354568414302E-2
 3.064000000000000E8     9.938092176276629E-1   -9.736903245345753E-2
 3.065000000000000E8     9.940564995494954E-1   -9.716139180689810E-2
 3.066000000000000E8     9.938441757283136E-1   -9.728520683171334E-2
 3.067000000000000E8     9.931509847990151E-1   -9.724658987102186E-2
 3.068000000000000E8     9.933038445168361E-1   -9.766502853083381E-2
 3.069000000000000E8     9.934825295199808E-1   -9.741141615221290E-2
 3.070000000000000E8     9.933555445915451E-1   -9.727370519639157E-2
 3.071000000000000E8     9.939406761870666E-1   -9.705535316585694E-2
 3.072000000000000E8     9.934704609871103E-1   -9.740584907975376E-2
 3.073000000000000E8     9.935221705038179E-1   -9.750343273929221E-2
 3.074000000000000E8     9.929790428255915E-1   -9.765482072897848E-2
 3.075000000000000E8     9.930597119884908E-1   -9.735193617405184E-2
 3.076000000000000E8     9.935984986840705E-1   -9.750529584020645E-2
 3.077000000000000E8     9.940723821746168E-1   -9.793562006332608E-2
 3.078000000000000E8     9.936109514223041E-1   -9.776057744760044E-2
 3.079000000000000E8     9.935689679884608E-1   -9.788276592973691E-2
 3.080000000000000E8     9.930434400538436E-1   -9.808615299521073E-2
 3.081000000000000E8     9.935434789481414E-1   -9.805423533114109E-2
 3.082000000000000E8     9.925619033807929E-1   -9.754567562277604E-2
 3.083000000000000E8     9.929830025952660E-1   -9.826205954357424E-2
 3.084000000000000E8     9.929797441592564E-1   -9.816035733735747E-2
 3.085000000000000E8     9.928795744084491E-1   -9.773058043613073E-2
 3.086000000000000E8     9.923417629014950E-1   -9.725422137534996E-2
 3.087000000000000E8     9.920342764080385E-1   -9.719293613821649E-2
 3.088000000000000E8     9.927786561549650E-1   -9.709234920801962E-2
 3.089000000000000E8     9.929007618694236E-1   -9.706043179892068E-2
 3.090000000000000E8     9.931193658519861E-1   -9.731859819274366E-2
 3.091000000000000E8     9.930138136342889E-1   -9.699359570272287E-2
 3.092000000000000E8     9.932610156516479E-1   -9.746850666281769E-2
 3.093000000000000E8     9.932377113439657E-1   -9.734964527718457E-2
 3.094000000000000E8     9.937653226743285E-1   -9.767822350249854E-2
 3.095000000000000E8     9.930915035761225E-1   -9.727201108468753E-2
 3.096000000000000E8     9.935685532061852E-1   -9.708142017309809E-2
 3.097000000000000E8     9.936818708654683E-1   -9.733424104428406E-2
 3.098000000000000E8     9.934910101097607E-1   -9.714776373196310E-2
 3.099000000000000E8     9.935187250514864E-1   -9.825794369709916E-2
 3.100000000000000E8     9.935541987384616E-1   -9.802126869813672E-2
 3.101000000000000E8     9.936487122838992E-1   -9.761857678599584E-2
 3.102000000000000E8     9.931884164456695E-1   -9.756000946627400E-2
 3.103000000000000E8     9.938291259276444E-1   -9.769333896075562E-2
 3.104000000000000E8     9.933167527457631E-1   -9.803160309819933E-2
 3.105000000000000E8     9.932179535520224E-1   -9.779540444944887E-2
 3.106000000000000E8     9.936595085307333E-1   -9.797774660453468E-2
 3.107000000000000E8     9.939378879825573E-1   -9.784299073786881E-2
 3.108000000000000E8     9.940210568478105E-1   -9.765861693684054E-2
 3.109000000000000E8     9.937661690029273E-1   -9.782977971578050E-2
 3.110000000000000E8     9.938074256667134E-1   -9.818564481165457E-2
 3.111000000000000E8     9.941450088027660E-1   -9.836248738635706E-2
 3.112000000000000E8     9.943111673406682E-1   -9.839937691900767E-2
 3.113000000000000E8     9.935481499791287E-1   -9.873947669634468E-2
 3.114000000000000E8     9.937189577818886E-1   -9.870821252236833E-2
 3.115000000000000E8     9.941528725652826E-1   -9.828283140086942E-2
 3.116000000000000E8     9.938852713183729E-1   -9.853868411166337E-2
 3.117000000000000E8     9.934341681758957E-1   -9.931213729678759E-2
 3.118000000000000E8     9.935628496636061E-1   -9.854831013960871E-2
 3.119000000000000E8     9.939112391899172E-1   -9.874095478809235E-2
 3.120000000000000E8     9.939432157285140E-1   -9.871348480648920E-2
 3.121000000000000E8     9.939804099509647E-1   -9.888527382827438E-2
 3.122000000000000E8     9.937605708015680E-1   -9.862672442734269E-2
 3.123000000000000E8     9.937554394287484E-1   -9.909426997645039E-2
 3.124000000000000E8     9.935411544123850E-1   -9.956598641033172E-2
 3.125000000000000E8     9.936540237099888E-1   -9.900547920841762E-2
 3.126000000000000E8     9.935906681162118E-1   -9.923761223460510E-2
 3.127000000000000E8     9.932192731249276E-1   -9.917723329621912E-2
 3.128000000000000E8     9.936295979929048E-1   -9.906597856939942E-2
 3.129000000000000E8     9.935515531016060E-1   -9.913654009667325E-2
 3.130000000000000E8     9.932710335723453E-1   -9.873561915455120E-2
 3.131000000000000E8     9.940274662371549E-1   -9.911784294455338E-2
 3.132000000000000E8     9.940614780363687E-1   -9.869853030993804E-2
 3.133000000000000E8     9.936751567872100E-1   -9.923519819946633E-2
 3.134000000000000E8     9.936447391641460E-1   -9.905478496124145E-2
 3.135000000000000E8     9.931029909764968E-1   -9.902672939262526E-2
 3.136000000000000E8     9.939338643559449E-1   -9.947211637849750E-2
 3.137000000000000E8     9.935884185259316E-1   -9.890209618622559E-2
 3.138000000000000E8     9.933991865595553E-1   -9.934662673373519E-2
 3.139000000000000E8     9.933194264521902E-1   -9.940384005131631E-2
 3.140000000000000E8     9.935570232377730E-1   -9.975232215792752E-2
 3.141000000000000E8     9.939491265793221E-1   -9.911927010782107E-2
 3.142000000000000E8     9.933124467090351E-1   -9.944176175239704E-2
 3.143000000000000E8     9.935031774790737E-1   -9.954051043091033E-2
 3.144000000000000E8     9.933096270121156E-1   -9.964816599727562E-2
 3.145000000000000E8     9.936311277881962E-1   -9.940698591893624E-2
 3.146000000000000E8     9.936789723385244E-1   -9.971443726091600E-2
 3.147000000000000E8     9.938469525941991E-1   -9.975792510188097E-2
 3.148000000000000E8     9.935786235268612E-1   -9.946195460572856E-2
 3.149000000000000E8     9.936886545167989E-1   -9.904783592158566E-2
 3.150000000000000E8     9.934622507618600E-1   -9.968575733056105E-2
 3.151000000000000E8     9.935151385454609E-1   -9.988591329169713E-2
 3.152000000000000E8     9.936430720929406E-1   -9.960722236861906E-2
 3.153000000000000E8     9.935433971097529E-1   -1.000437505690704E-1
 3.154000000000000E8     9.932089727046429E-1   -1.001370459569861E-1
 3.155000000000000E8     9.934471067279056E-1   -9.986275825119528E-2
 3.156000000000000E8     9.937396463583533E-1   -9.975100041925555E-2
 3.157000000000000E8     9.935875965927167E-1   -1.001400701504625E-1
 3.158000000000000E8     9.936752704757382E-1   -9.992748175074759E-2
 3.159000000000000E8     9.932039591351038E-1   -1.001104078607921E-1
 3.160000000000000E8     9.936052417633081E-1   -9.999177237402517E-2
 3.161000000000000E8     9.931405139719445E-1   -9.979216096371958E-2
 3.162000000000000E8     9.933210909953336E-1   -9.995117665604816E-2
 3.163000000000000E8     9.933526766969806E-1   -1.001312066261777E-1
 3.164000000000000E8     9.932379847690593E-1   -9.975235641602227E-2
 3.165000000000000E8     9.934270158762547E-1   -1.004083101714203E-1
 3.166000000000000E8     9.936010045187829E-1   -9.990290111603030E-2
 3.167000000000000E8     9.934028135325560E-1   -1.003313984908989E-1
 3.168000000000000E8     9.935290838987544E-1   -1.006512559267690E-1
 3.169000000000000E8     9.937962019937292E-1   -1.003403525521596E-1
 3.170000000000000E8     9.932539015319096E-1   -1.007842461025963E-1
 3.171000000000000E8     9.935621205366851E-1   -1.006730002176689E-1
 3.172000000000000E8     9.936355235928901E-1   -1.006399924826635E-1
 3.173000000000000E8     9.933329044641812E-1   -1.002978664422542E-1
 3.174000000000000E8     9.930306019339621E-1   -1.007277912980372E-1
 3.175000000000000E8     9.935347878426418E-1   -1.002206924928448E-1
 3.176000000000000E8     9.934607266105371E-1   -1.009437314504993E-1
 3.177000000000000E8     9.932858281152298E-1   -1.005299533083812E-1
 3.178000000000000E8     9.935298307484968E-1   -1.003530250275723E-1
 3.179000000000000E8     9.934423127450496E-1   -1.007663033959950E-1
 3.180000000000000E8     9.933253244564033E-1   -1.008427764555203E-1
 3.181000000000000E8     9.933477360051448E-1   -1.006118814059261E-1
 3.182000000000000E8     9.934669525468209E-1   -1.007733245963805E-1
 3.183000000000000E8     9.933112586707529E-1   -1.009206733267065E-1
 3.184000000000000E8     9.932285978823897E-1   -1.008435202730467E-1
 3.185000000000000E8     9.933375582603067E-1   -1.007638904142087E-1
 3.186000000000000E8     9.934692653213635E-1   -1.007777552280744E-1
 3.187000000000000E8     9.936141818333999E-1   -1.010060019878321E-1
 3.188000000000000E8     9.936577224578245E-1   -1.011345343159010E-1
 3.189000000000000E8     9.937165751902739E-1   -1.011749552929123E-1
 3.190000000000000E8     9.936369193431384E-1   -1.013493315914249E-1
 3.191000000000000E8     9.934166760531759E-1   -1.010152713266711E-1
 3.192000000000000E8     9.934634445711884E-1   -1.009180785392945E-1
 3.193000000000000E8     9.936643354995869E-1   -1.012683520302279E-1
 3.194000000000000E8     9.933979507762619E-1   -1.011310792883939E-1
 3.195000000000000E8     9.935545569156453E-1   -1.009727906893298E-1
 3.196000000000000E8     9.938129441677542E-1   -1.012870286911077E-1
 3.197000000000000E8     9.932566155651637E-1   -1.012027020553908E-1
 3.198000000000000E8     9.936674070944301E-1   -1.014564668757290E-1
 3.199000000000000E8     9.937200000749386E-1   -1.015351467513017E-1
 3.200000000000000E8     9.934454755866952E-1   -1.009570927997218E-1
 3.201000000000000E8     9.936771928037517E-1   -1.011819183471280E-1
 3.202000000000000E8     9.932332781496719E-1   -1.012619498098990E-1
 3.203000000000000E8     9.938987049039276E-1   -1.014684220939562E-1
 3.204000000000000E8     9.931326040333701E-1   -1.009616678830616E-1
 3.205000000000000E8     9.932180584838570E-1   -1.012403445054227E-1
 3.206000000000000E8     9.935380441059845E-1   -1.012554081582364E-1
 3.207000000000000E8     9.932798169767024E-1   -1.017752072824165E-1
 3.208000000000000E8     9.935779228280113E-1   -1.017205752085562E-1
 3.209000000000000E8     9.935112061960320E-1   -1.016932330968847E-1
 3.210000000000000E8     9.940035280805876E-1   -1.015035893431945E-1
 3.211000000000000E8     9.937006362711029E-1   -1.014627447210895E-1
 3.212000000000000E8     9.937555971024298E-1   -1.016426643664358E-1
 3.213000000000000E8     9.933495374702460E-1   -1.018991180369417E-1
 3.214000000000000E8     9.937604540091949E-1   -1.017770817428532E-1
 3.215000000000000E8     9.933066138071157E-1   -1.022456635513912E-1
 3.216000000000000E8     9.935121886351948E-1   -1.018060078870465E-1
 3.217000000000000E8     9.938083379058285E-1   -1.023793180648032E-1
 3.218000000000000E8     9.932657008379336E-1   -1.019687034155319E-1
 3.219000000000000E8     9.938144559638387E-1   -1.019248232239799E-1
 3.220000000000000E8     9.936161638363376E-1   -1.022245996444287E-1
 3.221000000000000E8     9.935960244778744E-1   -1.018317359018118E-1
 3.222000000000000E8     9.935126782765396E-1   -1.023279666015560E-1
 3.223000000000000E8     9.937503735746935E-1   -1.023293257416414E-1
 3.224000000000000E8     9.937227295675192E-1   -1.022476921491799E-1
 3.225000000000000E8     9.939100024992912E-1   -1.021509695371342E-1
 3.226000000000000E8     9.937076849186979E-1   -1.024966840972210E-1
 3.227000000000000E8     9.934570060441250E-1   -1.022668695072530E-1
 3.228000000000000E8     9.935608179408627E-1   -1.023570084222636E-1
 3.229000000000000E8     9.934751900597028E-1   -1.027526670453842E-1
 3.230000000000000E8     9.937597154149394E-1   -1.023372342632104E-1
 3.231000000000000E8     9.935864585710086E-1   -1.025182613765128E-1
 3.232000000000000E8     9.938816483827829E-1   -1.024075832546655E-1
 3.233000000000000E8     9.936796102825037E-1   -1.027597085753457E-1
 3.234000000000000E8     9.936137200438635E-1   -1.026460372291044E-1
 3.235000000000000E8     9.935599950082975E-1   -1.030540864925021E-1
 3.236000000000000E8     9.938254626256060E-1   -1.028144237863027E-1
 3.237000000000000E8     9.935606092765610E-1   -1.027001193907180E-1
 3.238000000000000E8     9.931295135271837E-1   -1.031278685331896E-1
 3.239000000000000E8     9.933887208746706E-1   -1.031287254843625E-1
 3.240000000000000E8     9.933811348405043E-1   -1.034524997653535E-1
 3.241000000000000E8     9.936791074690811E-1   -1.031293933275884E-1
 3.242000000000000E8     9.936915279626672E-1   -1.035203896110789E-1
 3.243000000000000E8     9.931780803097204E-1   -1.034594779920046E-1
 3.244000000000000E8     9.933098638294310E-1   -1.037976713514984E-1
 3.245000000000000E8     9.930082570468809E-1   -1.035917706889827E-1
 3.246000000000000E8     9.931070673665008E-1   -1.036071678576581E-1
 3.247000000000000E8     9.926843652223731E-1   -1.037317370528711E-1
 3.248000000000000E8     9.927105353974518E-1   -1.035309871923791E-1
 3.249000000000000E8     9.924196771271141E-1   -1.030921891574391E-1
 3.250000000000000E8     9.922110238793251E-1   -1.027116217306427E-1
 3.251000000000000E8     9.926759566874729E-1   -1.029569083572892E-1
 3.252000000000000E8     9.930747052964447E-1   -1.025153479841701E-1
 3.253000000000000E8     9.929843744634783E-1   -1.028360009500006E-1
 3.254000000000000E8     9.930594835356105E-1   -1.030502166009181E-1
 3.255000000000000E8     9.929753494453431E-1   -1.029163871788832E-1
 3.256000000000000E8     9.929047766112881E-1   -1.032181246628396E-1
 3.257000000000000E8     9.931709408692179E-1   -1.031392489125532E-1
 3.258000000000000E8     9.934099410750408E-1   -1.033143493127245E-1
 3.259000000000000E8     9.930426803608744E-1   -1.031077948034047E-1
 3.260000000000000E8     9.934280889179696E-1   -1.032336994007270E-1
 3.261000000000000E8     9.931753101863782E-1   -1.034154931238415E-1
 3.262000000000000E8     9.933102365566929E-1   -1.036186192132852E-1
 3.263000000000000E8     9.933711269175479E-1   -1.031415211311232E-1
 3.264000000000000E8     9.933073077453423E-1   -1.031145111463488E-1
 3.265000000000000E8     9.934215764568662E-1   -1.033657830424424E-1
 3.266000000000000E8     9.931848019055762E-1   -1.031991587556060E-1
 3.267000000000000E8     9.932417086839961E-1   -1.034479527414831E-1
 3.268000000000000E8     9.934937168286007E-1   -1.034577403936741E-1
 3.269000000000000E8     9.933039029294732E-1   -1.037376337437629E-1
 3.270000000000000E8     9.931190872735120E-1   -1.038016074680325E-1
 3.271000000000000E8     9.933853883439699E-1   -1.036400142661372E-1
 3.272000000000000E8     9.934528335299810E-1   -1.036616540764871E-1
 3.273000000000000E8     9.930197440485504E-1   -1.036935139289385E-1
 3.274000000000000E8     9.931234999017398E-1   -1.035800731369569E-1
 3.275000000000000E8     9.934109324130600E-1   -1.037155471408362E-1
 3.276000000000000E8     9.934473387535922E-1   -1.036875266243646E-1
 3.277000000000000E8     9.931147558396059E-1   -1.038297557366179E-1
